"Freq [GHz]","re(S(1 2)) []","im(S(1 2)) []"
7.5,-0.222576044540826,-0.935261647147099
7.5001,-0.222809017016048,-0.935207690056445
7.5002,-0.223041967991245,-0.935153676475946
7.5003,-0.223274897454425,-0.935099606414852
7.5004,-0.223507805393599,-0.935045479882414
7.5005,-0.22374069179678,-0.934991296887884
7.5006,-0.223973556651984,-0.934937057440517
7.5007,-0.224206399947233,-0.934882761549566
7.5008,-0.22443922167055,-0.93482840922429
7.5009,-0.224672021809963,-0.934774000473947
7.501,-0.224904800353502,-0.934719535307797
7.5011,-0.225137557289199,-0.9346650137351
7.5012,-0.225370292605095,-0.934610435765121
7.5013,-0.225603006289232,-0.934555801407123
7.5014,-0.22583569832965,-0.934501110670372
7.5015,-0.226068368714399,-0.934446363564134
7.5016,-0.226301017431531,-0.93439156009768
7.5017,-0.226533644469099,-0.934336700280279
7.5018,-0.226766249815161,-0.934281784121203
7.5019,-0.226998833457779,-0.934226811629725
7.502,-0.227231395385019,-0.934171782815119
7.5021,-0.227463935584947,-0.934116697686662
7.5022,-0.227696454045635,-0.934061556253631
7.5023,-0.22792895075516,-0.934006358525306
7.5024,-0.228161425701599,-0.933951104510966
7.5025,-0.228393878873033,-0.933895794219894
7.5026,-0.228626310257548,-0.933840427661373
7.5027,-0.228858719843231,-0.933785004844689
7.5028,-0.229091107618178,-0.933729525779127
7.5029,-0.229323473570483,-0.933673990473974
7.503,-0.229555817688244,-0.933618398938522
7.5031,-0.229788139959563,-0.933562751182059
7.5032,-0.230020440372547,-0.93350704721388
7.5033,-0.230252718915304,-0.933451287043276
7.5034,-0.230484975575947,-0.933395470679543
7.5035,-0.230717210342592,-0.933339598131979
7.5036,-0.230949423203358,-0.93328366940988
7.5037,-0.231181614146367,-0.933227684522546
7.5038,-0.231413783159747,-0.93317164347928
7.5039,-0.231645930231626,-0.933115546289381
7.504,-0.231878055350138,-0.933059392962155
7.5041,-0.232110158503419,-0.933003183506907
7.5042,-0.232342239679608,-0.932946917932944
7.5043,-0.232574298866848,-0.932890596249574
7.5044,-0.232806336053287,-0.932834218466106
7.5045,-0.233038351227075,-0.932777784591852
7.5046,-0.233270344376364,-0.932721294636124
7.5047,-0.233502315489311,-0.932664748608237
7.5048,-0.233734264554078,-0.932608146517505
7.5049,-0.233966191558827,-0.932551488373244
7.505,-0.234198096491725,-0.932494774184776
7.5051,-0.234429979340942,-0.932438003961418
7.5052,-0.234661840094653,-0.932381177712492
7.5053,-0.234893678741033,-0.93232429544732
7.5054,-0.235125495268265,-0.932267357175227
7.5055,-0.235357289664532,-0.932210362905539
7.5056,-0.235589061918021,-0.932153312647581
7.5057,-0.235820812016924,-0.932096206410683
7.5058,-0.236052539949433,-0.932039044204175
7.5059,-0.236284245703745,-0.931981826037388
7.506,-0.236515929268066,-0.931924551919654
7.5061,-0.236747590630596,-0.931867221860307
7.5062,-0.236979229779544,-0.931809835868684
7.5063,-0.237210846703121,-0.931752393954122
7.5064,-0.237442441389543,-0.931694896125958
7.5065,-0.237674013827025,-0.931637342393533
7.5066,-0.237905564003791,-0.931579732766187
7.5067,-0.238137091908064,-0.931522067253265
7.5068,-0.238368597528073,-0.93146434586411
7.5069,-0.238600080852049,-0.931406568608067
7.507,-0.238831541868228,-0.931348735494484
7.5071,-0.239062980564847,-0.931290846532709
7.5072,-0.239294396930147,-0.931232901732092
7.5073,-0.239525790952376,-0.931174901101985
7.5074,-0.239757162619781,-0.931116844651739
7.5075,-0.23998851192061,-0.93105873239071
7.5076,-0.240219838843126,-0.931000564328252
7.5077,-0.240451143375583,-0.930942340473723
7.5078,-0.240682425506243,-0.930884060836482
7.5079,-0.240913685223373,-0.930825725425887
7.508,-0.241144922515241,-0.930767334251301
7.5081,-0.241376137370119,-0.930708887322085
7.5082,-0.241607329776284,-0.930650384647605
7.5083,-0.241838499722013,-0.930591826237225
7.5084,-0.242069647195589,-0.930533212100313
7.5085,-0.242300772185299,-0.930474542246237
7.5086,-0.242531874679431,-0.930415816684366
7.5087,-0.242762954666279,-0.930357035424071
7.5088,-0.242994012134137,-0.930298198474727
7.5089,-0.243225047071306,-0.930239305845705
7.509,-0.243456059466088,-0.930180357546382
7.5091,-0.243687049306788,-0.930121353586134
7.5092,-0.243918016581716,-0.930062293974341
7.5093,-0.244148961279187,-0.93000317872038
7.5094,-0.244379883387517,-0.929944007833633
7.5095,-0.244610782895023,-0.929884781323484
7.5096,-0.244841659790031,-0.929825499199315
7.5097,-0.245072514060866,-0.92976616147051
7.5098,-0.245303345695858,-0.929706768146459
7.5099,-0.245534154683339,-0.929647319236548
7.51,-0.245764941011648,-0.929587814750167
7.5101,-0.245995704669124,-0.929528254696706
7.5102,-0.24622644564411,-0.929468639085558
7.5103,-0.246457163924953,-0.929408967926117
7.5104,-0.246687859500004,-0.929349241227777
7.5105,-0.246918532357615,-0.929289458999934
7.5106,-0.247149182486143,-0.929229621251988
7.5107,-0.24737980987395,-0.929169727993336
7.5108,-0.247610414509396,-0.92910977923338
7.5109,-0.247840996380853,-0.929049774981521
7.511,-0.248071555476689,-0.928989715247163
7.5111,-0.248302091785279,-0.92892960003971
7.5112,-0.248532605294998,-0.928869429368569
7.5113,-0.248763095994228,-0.928809203243148
7.5114,-0.248993563871354,-0.928748921672854
7.5115,-0.249224008914761,-0.928688584667099
7.5116,-0.249454431112841,-0.928628192235294
7.5117,-0.249684830453988,-0.928567744386852
7.5118,-0.2499152069266,-0.928507241131188
7.5119,-0.250145560519077,-0.928446682477718
7.512,-0.250375891219824,-0.928386068435858
7.5121,-0.250606199017248,-0.928325399015028
7.5122,-0.250836483899761,-0.928264674224647
7.5123,-0.251066745855776,-0.928203894074137
7.5124,-0.251296984873709,-0.928143058572921
7.5125,-0.251527200941987,-0.928082167730422
7.5126,-0.25175739404903,-0.928021221556067
7.5127,-0.251987564183268,-0.927960220059281
7.5128,-0.252217711333131,-0.927899163249494
7.5129,-0.252447835487053,-0.927838051136135
7.513,-0.252677936633474,-0.927776883728634
7.5131,-0.252908014760835,-0.927715661036425
7.5132,-0.253138069857579,-0.927654383068941
7.5133,-0.253368101912156,-0.927593049835618
7.5134,-0.253598110913017,-0.927531661345891
7.5135,-0.253828096848617,-0.927470217609198
7.5136,-0.254058059707413,-0.92740871863498
7.5137,-0.254287999477869,-0.927347164432676
7.5138,-0.254517916148449,-0.927285555011728
7.5139,-0.25474780970762,-0.92722389038158
7.514,-0.254977680143853,-0.927162170551677
7.5141,-0.255207527445628,-0.927100395531463
7.5142,-0.25543735160142,-0.927038565330388
7.5143,-0.255667152599712,-0.926976679957899
7.5144,-0.255896930428988,-0.926914739423447
7.5145,-0.256126685077738,-0.926852743736484
7.5146,-0.256356416534453,-0.926790692906461
7.5147,-0.256586124787629,-0.926728586942834
7.5148,-0.256815809825765,-0.926666425855058
7.5149,-0.257045471637361,-0.926604209652589
7.515,-0.257275110210925,-0.926541938344887
7.5151,-0.257504725534966,-0.926479611941411
7.5152,-0.257734317597994,-0.926417230451621
7.5153,-0.257963886388527,-0.926354793884981
7.5154,-0.258193431895082,-0.926292302250954
7.5155,-0.258422954106182,-0.926229755559004
7.5156,-0.25865245301035,-0.9261671538186
7.5157,-0.258881928596121,-0.926104497039206
7.5158,-0.259111380852024,-0.926041785230295
7.5159,-0.259340809766595,-0.925979018401335
7.516,-0.259570215328374,-0.925916196561797
7.5161,-0.259799597525902,-0.925853319721157
7.5162,-0.260028956347725,-0.925790387888888
7.5163,-0.260258291782394,-0.925727401074466
7.5164,-0.260487603818459,-0.925664359287368
7.5165,-0.260716892444479,-0.925601262537073
7.5166,-0.260946157649012,-0.92553811083306
7.5167,-0.26117539942062,-0.925474904184811
7.5168,-0.261404617747869,-0.925411642601808
7.5169,-0.26163381261933,-0.925348326093535
7.517,-0.261862984023575,-0.925284954669478
7.5171,-0.26209213194918,-0.925221528339122
7.5172,-0.262321256384723,-0.925158047111957
7.5173,-0.26255035731879,-0.925094510997471
7.5174,-0.262779434739966,-0.925030920005153
7.5175,-0.26300848863684,-0.924967274144498
7.5176,-0.263237518998006,-0.924903573424997
7.5177,-0.26346652581206,-0.924839817856146
7.5178,-0.263695509067601,-0.92477600744744
7.5179,-0.263924468753232,-0.924712142208376
7.518,-0.264153404857561,-0.924648222148453
7.5181,-0.264382317369196,-0.924584247277172
7.5182,-0.264611206276752,-0.924520217604032
7.5183,-0.264840071568843,-0.924456133138537
7.5184,-0.265068913234092,-0.92439199389019
7.5185,-0.265297731261118,-0.924327799868498
7.5186,-0.265526525638552,-0.924263551082965
7.5187,-0.265755296355022,-0.9241992475431
7.5188,-0.265984043399159,-0.924134889258414
7.5189,-0.266212766759604,-0.924070476238414
7.519,-0.266441466424994,-0.924006008492615
7.5191,-0.266670142383975,-0.923941486030527
7.5192,-0.266898794625192,-0.923876908861667
7.5193,-0.267127423137294,-0.92381227699555
7.5194,-0.267356027908936,-0.923747590441693
7.5195,-0.267584608928775,-0.923682849209614
7.5196,-0.26781316618547,-0.923618053308833
7.5197,-0.268041699667685,-0.923553202748871
7.5198,-0.268270209364087,-0.923488297539251
7.5199,-0.268498695263347,-0.923423337689495
7.52,-0.268727157354137,-0.92335832320913
7.5201,-0.268955595625134,-0.923293254107681
7.5202,-0.269184010065019,-0.923228130394676
7.5203,-0.269412400662477,-0.923162952079644
7.5204,-0.26964076740619,-0.923097719172116
7.5205,-0.269869110284854,-0.923032431681621
7.5206,-0.270097429287161,-0.922967089617694
7.5207,-0.270325724401808,-0.922901692989868
7.5208,-0.270553995617493,-0.92283624180768
7.5209,-0.270782242922923,-0.922770736080665
7.521,-0.271010466306805,-0.922705175818361
7.5211,-0.271238665757847,-0.922639561030309
7.5212,-0.271466841264763,-0.922573891726049
7.5213,-0.271694992816272,-0.922508167915121
7.5214,-0.271923120401094,-0.922442389607071
7.5215,-0.272151224007953,-0.922376556811443
7.5216,-0.272379303625574,-0.922310669537782
7.5217,-0.27260735924269,-0.922244727795636
7.5218,-0.272835390848034,-0.922178731594552
7.5219,-0.273063398430343,-0.92211268094408
7.522,-0.273291381978357,-0.922046575853773
7.5221,-0.273519341480822,-0.921980416333182
7.5222,-0.273747276926484,-0.92191420239186
7.5223,-0.273975188304094,-0.921847934039362
7.5224,-0.274203075602404,-0.921781611285246
7.5225,-0.274430938810176,-0.921715234139067
7.5226,-0.274658777916165,-0.921648802610385
7.5227,-0.274886592909139,-0.921582316708761
7.5228,-0.275114383777864,-0.921515776443755
7.5229,-0.27534215051111,-0.921449181824929
7.523,-0.275569893097653,-0.921382532861849
7.5231,-0.275797611526268,-0.921315829564079
7.5232,-0.276025305785737,-0.921249071941186
7.5233,-0.276252975864844,-0.921182260002737
7.5234,-0.276480621752376,-0.921115393758302
7.5235,-0.276708243437125,-0.92104847321745
7.5236,-0.276935840907881,-0.920981498389755
7.5237,-0.277163414153447,-0.920914469284788
7.5238,-0.277390963162622,-0.920847385912123
7.5239,-0.27761848792421,-0.920780248281336
7.524,-0.277845988427017,-0.920713056402004
7.5241,-0.278073464659854,-0.920645810283705
7.5242,-0.278300916611538,-0.920578509936018
7.5243,-0.278528344270883,-0.920511155368524
7.5244,-0.278755747626712,-0.920443746590805
7.5245,-0.278983126667848,-0.920376283612443
7.5246,-0.279210481383119,-0.920308766443023
7.5247,-0.279437811761356,-0.920241195092131
7.5248,-0.279665117791393,-0.920173569569354
7.5249,-0.279892399462068,-0.920105889884279
7.525,-0.280119656762221,-0.920038156046497
7.5251,-0.280346889680696,-0.919970368065598
7.5252,-0.28057409820634,-0.919902525951175
7.5253,-0.280801282328007,-0.91983462971282
7.5254,-0.281028442034548,-0.919766679360127
7.5255,-0.281255577314823,-0.919698674902693
7.5256,-0.281482688157692,-0.919630616350115
7.5257,-0.281709774552018,-0.919562503711991
7.5258,-0.281936836486669,-0.919494336997921
7.5259,-0.282163873950517,-0.919426116217506
7.526,-0.282390886932435,-0.919357841380347
7.5261,-0.282617875421302,-0.919289512496049
7.5262,-0.282844839405998,-0.919221129574214
7.5263,-0.283071778875407,-0.919152692624451
7.5264,-0.283298693818417,-0.919084201656365
7.5265,-0.283525584223919,-0.919015656679566
7.5266,-0.283752450080806,-0.918947057703662
7.5267,-0.283979291377976,-0.918878404738266
7.5268,-0.28420610810433,-0.918809697792988
7.5269,-0.284432900248774,-0.918740936877443
7.527,-0.284659667800215,-0.918672122001244
7.5271,-0.284886410747562,-0.918603253174008
7.5272,-0.285113129079731,-0.918534330405352
7.5273,-0.285339822785639,-0.918465353704896
7.5274,-0.285566491854206,-0.918396323082257
7.5275,-0.285793136274357,-0.918327238547057
7.5276,-0.286019756035021,-0.918258100108919
7.5277,-0.286246351125126,-0.918188907777465
7.5278,-0.286472921533608,-0.91811966156232
7.5279,-0.286699467249405,-0.918050361473111
7.528,-0.286925988261456,-0.917981007519465
7.5281,-0.287152484558707,-0.917911599711008
7.5282,-0.287378956130104,-0.917842138057373
7.5283,-0.287605402964598,-0.917772622568188
7.5284,-0.287831825051143,-0.917703053253088
7.5285,-0.288058222378699,-0.917633430121704
7.5286,-0.288284594936226,-0.91756375318367
7.5287,-0.288510942712686,-0.917494022448625
7.5288,-0.288737265697048,-0.917424237926203
7.5289,-0.288963563878283,-0.917354399626044
7.529,-0.289189837245364,-0.917284507557787
7.5291,-0.28941608578727,-0.917214561731072
7.5292,-0.289642309492981,-0.917144562155543
7.5293,-0.289868508351481,-0.917074508840841
7.5294,-0.290094682351757,-0.917004401796612
7.5295,-0.290320831482801,-0.916934241032501
7.5296,-0.290546955733605,-0.916864026558155
7.5297,-0.290773055093168,-0.916793758383222
7.5298,-0.290999129550491,-0.916723436517351
7.5299,-0.291225179094578,-0.916653060970194
7.53,-0.291451203714433,-0.916582631751403
7.5301,-0.291677203399073,-0.916512148870629
7.5302,-0.291903178137507,-0.916441612337527
7.5303,-0.292129127918755,-0.916371022161753
7.5304,-0.292355052731835,-0.916300378352964
7.5305,-0.292580952565775,-0.916229680920817
7.5306,-0.292806827409599,-0.916158929874972
7.5307,-0.293032677252338,-0.916088125225089
7.5308,-0.293258502083027,-0.91601726698083
7.5309,-0.293484301890702,-0.915946355151857
7.531,-0.293710076664406,-0.915875389747834
7.5311,-0.29393582639318,-0.915804370778428
7.5312,-0.294161551066072,-0.915733298253303
7.5313,-0.294387250672134,-0.915662172182129
7.5314,-0.294612925200419,-0.915590992574573
7.5315,-0.294838574639983,-0.915519759440306
7.5316,-0.295064198979889,-0.915448472789
7.5317,-0.295289798209196,-0.915377132630327
7.5318,-0.295515372316977,-0.91530573897396
7.5319,-0.2957409212923,-0.915234291829574
7.532,-0.295966445124238,-0.915162791206846
7.5321,-0.296191943801869,-0.915091237115454
7.5322,-0.296417417314273,-0.915019629565075
7.5323,-0.296642865650534,-0.914947968565389
7.5324,-0.29686828879974,-0.914876254126078
7.5325,-0.297093686750979,-0.914804486256824
7.5326,-0.297319059493346,-0.91473266496731
7.5327,-0.297544407015938,-0.91466079026722
7.5328,-0.297769729307854,-0.914588862166241
7.5329,-0.2979950263582,-0.914516880674059
7.533,-0.298220298156081,-0.914444845800363
7.5331,-0.298445544690608,-0.914372757554842
7.5332,-0.298670765950894,-0.914300615947187
7.5333,-0.298895961926055,-0.914228420987091
7.5334,-0.299121132605214,-0.914156172684244
7.5335,-0.299346277977492,-0.914083871048342
7.5336,-0.299571398032018,-0.914011516089079
7.5337,-0.299796492757919,-0.913939107816154
7.5338,-0.300021562144331,-0.913866646239263
7.5339,-0.300246606180389,-0.913794131368106
7.534,-0.300471624855234,-0.913721563212382
7.5341,-0.30069661815801,-0.913648941781794
7.5342,-0.300921586077862,-0.913576267086043
7.5343,-0.301146528603941,-0.913503539134833
7.5344,-0.301371445725399,-0.91343075793787
7.5345,-0.301596337431395,-0.913357923504859
7.5346,-0.301821203711086,-0.913285035845508
7.5347,-0.302046044553637,-0.913212094969525
7.5348,-0.302270859948214,-0.91313910088662
7.5349,-0.302495649883984,-0.913066053606504
7.535,-0.302720414350126,-0.912992953138889
7.5351,-0.302945153335813,-0.912919799493487
7.5352,-0.303169866830226,-0.912846592680014
7.5353,-0.303394554822546,-0.912773332708185
7.5354,-0.30361921730196,-0.912700019587716
7.5355,-0.303843854257658,-0.912626653328327
7.5356,-0.304068465678834,-0.912553233939735
7.5357,-0.304293051554683,-0.912479761431661
7.5358,-0.304517611874403,-0.912406235813828
7.5359,-0.3047421466272,-0.912332657095956
7.536,-0.304966655802279,-0.91225902528777
7.5361,-0.305191139388848,-0.912185340398996
7.5362,-0.305415597376121,-0.912111602439359
7.5363,-0.305640029753315,-0.912037811418586
7.5364,-0.305864436509648,-0.911963967346408
7.5365,-0.306088817634341,-0.911890070232552
7.5366,-0.306313173116623,-0.91181612008675
7.5367,-0.306537502945722,-0.911742116918733
7.5368,-0.306761807110872,-0.911668060738235
7.5369,-0.306986085601308,-0.911593951554992
7.537,-0.307210338406268,-0.911519789378736
7.5371,-0.307434565514996,-0.911445574219206
7.5372,-0.307658766916735,-0.91137130608614
7.5373,-0.307882942600738,-0.911296984989277
7.5374,-0.308107092556255,-0.911222610938355
7.5375,-0.308331216772542,-0.911148183943119
7.5376,-0.308555315238858,-0.911073704013309
7.5377,-0.308779387944465,-0.910999171158669
7.5378,-0.309003434878629,-0.910924585388944
7.5379,-0.30922745603062,-0.91084994671388
7.538,-0.309451451389708,-0.910775255143225
7.5381,-0.309675420945167,-0.910700510686727
7.5382,-0.30989936468628,-0.910625713354134
7.5383,-0.310123282602328,-0.910550863155198
7.5384,-0.310347174682595,-0.910475960099671
7.5385,-0.310571040916371,-0.910401004197305
7.5386,-0.310794881292946,-0.910325995457854
7.5387,-0.311018695801616,-0.910250933891075
7.5388,-0.311242484431681,-0.910175819506722
7.5389,-0.311466247172441,-0.910100652314555
7.539,-0.311689984013203,-0.91002543232433
7.5391,-0.311913694943272,-0.909950159545808
7.5392,-0.312137379951962,-0.909874833988751
7.5393,-0.312361039028589,-0.909799455662921
7.5394,-0.31258467216247,-0.909724024578079
7.5395,-0.312808279342926,-0.909648540743993
7.5396,-0.313031860559283,-0.909573004170425
7.5397,-0.313255415800867,-0.909497414867145
7.5398,-0.313478945057012,-0.909421772843918
7.5399,-0.313702448317053,-0.909346078110514
7.54,-0.313925925570326,-0.909270330676704
7.5401,-0.314149376806173,-0.909194530552259
7.5402,-0.314372802013941,-0.90911867774695
7.5403,-0.314596201182974,-0.909042772270552
7.5404,-0.314819574302625,-0.90896681413284
7.5405,-0.315042921362248,-0.908890803343589
7.5406,-0.315266242351203,-0.908814739912575
7.5407,-0.315489537258848,-0.908738623849578
7.5408,-0.315712806074548,-0.908662455164377
7.5409,-0.315936048787673,-0.908586233866751
7.541,-0.31615926538759,-0.908509959966484
7.5411,-0.316382455863677,-0.908433633473356
7.5412,-0.316605620205309,-0.908357254397152
7.5413,-0.316828758401866,-0.908280822747657
7.5414,-0.317051870442736,-0.908204338534656
7.5415,-0.317274956317304,-0.908127801767937
7.5416,-0.317498016014961,-0.908051212457289
7.5417,-0.317721049525099,-0.9079745706125
7.5418,-0.317944056837119,-0.907897876243361
7.5419,-0.318167037940418,-0.907821129359664
7.542,-0.318389992824402,-0.907744329971202
7.5421,-0.318612921478477,-0.907667478087768
7.5422,-0.318835823892054,-0.907590573719158
7.5423,-0.319058700054545,-0.907513616875168
7.5424,-0.319281549955368,-0.907436607565594
7.5425,-0.319504373583944,-0.907359545800237
7.5426,-0.319727170929696,-0.907282431588894
7.5427,-0.319949941982051,-0.907205264941366
7.5428,-0.320172686730438,-0.907128045867456
7.5429,-0.320395405164288,-0.907050774376968
7.543,-0.320618097273044,-0.906973450479702
7.5431,-0.320840763046143,-0.906896074185466
7.5432,-0.321063402473026,-0.906818645504066
7.5433,-0.321286015543142,-0.906741164445308
7.5434,-0.32150860224594,-0.906663631019002
7.5435,-0.321731162570872,-0.906586045234957
